date Sun May 03 08:00:00.000 2026
base hex  timestamps absolute
internal events logged
Begin Triggerblock Thu Jan 01 01:00:00.0 1970
 0.000000 Start of measurement
 0.000000 2  200x            Rx   d 8 D3 37 20 46 68 8A 8D 15
 0.010000 2  200x            Rx   d 8 F2 1C A8 96 D1 CB 62 3F
 0.020000 2  100x            Rx   d 8 A0 DF A9 7F BA 8B 6E 8C
 0.030000 2  100x            Rx   d 8 38 99 AA 81 23 59 A5 76
 0.040000 2  200x            Rx   d 8 CD B9 B3 08 20 1C E4 61
 0.050000 2  100x            Rx   d 8 63 B9 7B D9 FF 48 53 E7
 0.060000 2  300x            Rx   d 8 DD 25 21 30 B0 81 34 B0
 0.070000 2  100x            Rx   d 8 5F 8C 18 E9 F8 C8 A0 0B
 0.080000 2  300x            Rx   d 8 0D DC 27 1A 45 CF B5 39
 0.090000 2  100x            Rx   d 8 EB 35 A4 2C 61 9D 46 BA
 0.100000 2  200x            Rx   d 8 0E 3B 62 C5 D9 E7 8F 87
 0.110000 2  200x            Rx   d 8 8C 33 09 BE 92 46 30 0E
 0.120000 2  200x            Rx   d 8 67 37 BD 52 23 C2 08 62
 0.130000 2  300x            Rx   d 8 E9 FF C3 78 61 67 D7 C6
 0.140000 2  100x            Rx   d 8 C6 C7 E9 5E 9B F1 A3 C7
 0.150000 2  100x            Rx   d 8 16 FA 10 C3 DB 7D 42 26
 0.160000 2  ErrorFrame
 0.170000 2  300x            Rx   d 8 75 0E 9F D9 3C 12 18 71
 0.180000 2  100x            Rx   d 8 81 59 F1 D2 56 64 93 8F
 0.190000 2  300x            Rx   d 8 59 3D A8 FF BB 0E 09 B8
 0.200000 2  300x            Rx   d 8 04 3A DD 63 72 FD 20 2E
 0.210000 2  300x            Rx   d 8 B4 25 A9 18 90 AD DC FF
 0.220000 2  200x            Rx   d 8 31 A3 53 11 BE 7D 2F D0
 0.230000 2  300x            Rx   d 8 D4 1F 28 7B 14 15 FD A4
 0.240000 2  200x            Rx   d 8 CC DE 52 C4 94 3A B9 84
 0.250000 2  100x            Rx   d 8 37 91 B1 BE 7E 27 5E 08
 0.260000 2  300x            Rx   d 8 E3 93 4E AF 21 8D D0 7B
 0.270000 2  200x            Rx   d 8 46 12 12 F2 91 DA 63 A8
 0.280000 2  100x            Rx   d 8 06 76 8C 03 1A 02 F0 C1
 0.290000 2  300x            Rx   d 8 7F E8 94 5D 96 B2 92 55
 0.300000 2  300x            Rx   d 8 3A 4D 07 86 D0 12 81 1F
 0.310000 2  300x            Rx   d 8 CB 6F 3C FC 5B 0E 3D 87
 0.320000 2  ErrorFrame
 0.330000 2  100x            Rx   d 8 37 6A 42 92 AB 60 3E AE
 0.340000 2  300x            Rx   d 8 BF 95 36 38 CB 77 62 B2
 0.350000 2  300x            Rx   d 8 AC 28 E0 9A 24 20 CE 31
 0.360000 2  200x            Rx   d 8 EA 56 1F DC 9E 84 5D 20
 0.370000 2  200x            Rx   d 8 17 2E B9 73 75 E4 F4 46
 0.380000 2  200x            Rx   d 8 B1 84 7F 2A E6 12 85 D9
 0.390000 2  200x            Rx   d 8 63 74 18 80 E8 76 A6 EA
 0.400000 2  200x            Rx   d 8 81 7C D1 A6 95 98 C7 15
 0.410000 2  300x            Rx   d 8 B8 82 14 52 4B 4D F1 92
 0.420000 2  100x            Rx   d 8 0E C2 A8 1F C3 CC 01 29
 0.430000 2  300x            Rx   d 8 2C 0A 39 A9 E4 B7 8A DB
 0.440000 2  100x            Rx   d 8 99 68 8C 54 47 C1 EC E0
 0.450000 2  200x            Rx   d 8 79 1F 1C CF 18 0F 4B 5B
 0.460000 2  300x            Rx   d 8 A4 BC F7 44 07 0E CD CE
 0.470000 2  200x            Rx   d 8 48 68 F4 93 F2 B2 F2 AA
 0.480000 2  ErrorFrame
 0.490000 2  300x            Rx   d 8 FA 2C DB FB 09 BF 36 47
End TriggerBlock
